
T41C4 000:085 SEGGER J-Link V6.10i Log File (0000ms, 0026ms total)
T41C4 000:085 DLL Compiled: Oct 25 2016 19:31:51 (0000ms, 0026ms total)
T41C4 000:085 Logging started @ 2024-03-13 21:39 (0000ms, 0026ms total)
T41C4 000:085 JLINK_SetWarnOutHandler(...) (0000ms, 0026ms total)
T41C4 000:085 JLINK_OpenEx(...)
Firmware: J-Link ARM-OB STM32 compiled Aug 22 2012 19:52:04
Hardware: V7.00
S/N: 20090937
Feature(s): RDI,FlashDL,FlashBP,JFlash,GDBFullWEBSRV Webserver running on local port 19080 (0019ms, 0045ms total)
T41C4 000:085   returns O.K. (0019ms, 0045ms total)
T41C4 000:104 JLINK_SetErrorOutHandler(...) (0000ms, 0045ms total)
T41C4 000:104 JLINK_ExecCommand("ProjectFile = "G:\work\Arduino\printer_stm32\MDK-ARM\JLinkSettings.ini"", ...).   returns 0x00 (0077ms, 0122ms total)
T41C4 000:182 JLINK_ExecCommand("Device = STM32F103CB", ...). Device "STM32F103CB" selected.  returns 0x00 (0002ms, 0124ms total)
T41C4 000:184 JLINK_ExecCommand("DisableConnectionTimeout", ...).   returns 0x01 (0000ms, 0124ms total)
T41C4 000:184 JLINK_GetHardwareVersion()  returns 0x11170 (0000ms, 0124ms total)
T41C4 000:184 JLINK_GetDLLVersion()  returns 61009 (0000ms, 0124ms total)
T41C4 000:184 JLINK_GetFirmwareString(...) (0000ms, 0124ms total)
T41C4 000:191 JLINK_GetDLLVersion()  returns 61009 (0000ms, 0124ms total)
T41C4 000:191 JLINK_GetCompileDateTime() (0000ms, 0124ms total)
T41C4 000:194 JLINK_GetFirmwareString(...) (0000ms, 0124ms total)
T41C4 000:196 JLINK_GetHardwareVersion()  returns 0x11170 (0000ms, 0124ms total)
T41C4 000:205 JLINK_TIF_Select(JLINKARM_TIF_SWD)  returns 0x00 (0001ms, 0125ms total)
T41C4 000:206 JLINK_SetSpeed(5000) (0000ms, 0125ms total)
T41C4 000:206 JLINK_GetId() >0x108 TIF>Found SWD-DP with ID 0x1BA01477 >0x0D TIF> >0x28 TIF> >0x0D TIF> >0x28 TIF> >0x0D TIF> >0x28 TIF> >0x0D TIF> >0x28 TIF> >0x0D TIF> >0x21 TIF> >0x0D TIF> >0x28 TIF> >0x0D TIF> >0x28 TIF> >0x0D TIF> >0x28 TIF> >0x0D TIF> >0x21 TIF> >0x0D TIF> >0x21 TIF> >0x0D TIF> >0x28 TIF> >0x0D TIF> >0x21 TIF> >0x0D TIF> >0x21 TIF> >0x0D TIF> >0x28 TIF> >0x0D TIF> >0x28 TIF> >0x0D TIF> >0x28 TIF> >0x0D TIF> >0x21 TIF> >0x0D TIF> >0x21 TIF> >0x0D TIF> >0x28 TIF> >0x0D TIF>
 >0x21 TIF> >0x0D TIF> >0x21 TIF> >0x0D TIF> >0x28 TIF> >0x0D TIF> >0x21 TIF> >0x0D TIF> >0x21 TIF> >0x0D TIF> >0x28 TIF> >0x0D TIF> >0x21 TIF> >0x0D TIF> >0x21 TIF> >0x0D TIF> >0x28 TIF> >0x0D TIF> >0x21 TIF> >0x0D TIF> >0x21 TIF> >0x108 TIF>Found SWD-DP with ID 0x1BA01477 >0x0D TIF> >0x28 TIF> >0x0D TIF> >0x28 TIF> >0x0D TIF> >0x28 TIF> >0x0D TIF> >0x28 TIF> >0x0D TIF> >0x21 TIF> >0x0D TIF> >0x28 TIF> >0x0D TIF> >0x28 TIF> >0x0D TIF> >0x21 TIF> >0x0D TIF> >0x21 TIF> >0x0D TIF> >0x21 TIF>
AP-IDR: 0x14770011, Type: AHB-AP >0x0D TIF> >0x28 TIF> >0x0D TIF> >0x28 TIF> >0x0D TIF> >0x28 TIF> >0x0D TIF> >0x21 TIF> >0x0D TIF> >0x21 TIF> >0x0D TIF> >0x28 TIF> >0x0D TIF> >0x21 TIF> >0x0D TIF> >0x21 TIF>Found Cortex-M3 r1p1, Little endian. -- CPU_ReadMem(4 bytes @ 0xE000EDF0) -- CPU_WriteMem(4 bytes @ 0xE000EDF0) -- CPU_ReadMem(4 bytes @ 0xE0002000)FPUnit: 6 code (BP) slots and 2 literal slots -- CPU_ReadMem(4 bytes @ 0xE000EDFC) -- CPU_WriteMem(4 bytes @ 0xE000EDFC)
 -- CPU_ReadMem(4 bytes @ 0xE0001000) -- CPU_WriteMem(4 bytes @ 0xE0001000) -- CPU_ReadMem(4 bytes @ 0xE000ED88) -- CPU_WriteMem(4 bytes @ 0xE000ED88) -- CPU_ReadMem(4 bytes @ 0xE000ED88) -- CPU_WriteMem(4 bytes @ 0xE000ED88)CoreSight components:ROMTbl 0 @ E00FF000 -- CPU_ReadMem(16 bytes @ 0xE00FF000) -- CPU_ReadMem(16 bytes @ 0xE000EFF0) -- CPU_ReadMem(16 bytes @ 0xE000EFE0)ROMTbl 0 [0]: FFF0F000, CID: B105E00D, PID: 001BB000 SCS -- CPU_ReadMem(16 bytes @ 0xE0001FF0)
 -- CPU_ReadMem(16 bytes @ 0xE0001FE0)ROMTbl 0 [1]: FFF02000, CID: B105E00D, PID: 001BB002 DWT -- CPU_ReadMem(16 bytes @ 0xE0002FF0) -- CPU_ReadMem(16 bytes @ 0xE0002FE0)ROMTbl 0 [2]: FFF03000, CID: B105E00D, PID: 000BB003 FPB -- CPU_ReadMem(16 bytes @ 0xE0000FF0) -- CPU_ReadMem(16 bytes @ 0xE0000FE0)ROMTbl 0 [3]: FFF01000, CID: B105E00D, PID: 001BB001 ITM -- CPU_ReadMem(16 bytes @ 0xE00FF010) -- CPU_ReadMem(16 bytes @ 0xE0040FF0) -- CPU_ReadMem(16 bytes @ 0xE0040FE0)
ROMTbl 0 [4]: FFF41000, CID: B105900D, PID: 001BB923 TPIU-Lite >0x0D TIF> >0x21 TIF>  returns 0x1BA01477 (0087ms, 0212ms total)
T41C4 000:294 JLINK_GetDLLVersion()  returns 61009 (0000ms, 0212ms total)
T41C4 000:294 JLINK_CORE_GetFound()  returns 0x30000FF (0000ms, 0212ms total)
T41C4 000:294 JLINK_GetDebugInfo(0x100) -- Value=0xE00FF000  returns 0x00 (0000ms, 0212ms total)
T41C4 000:296 JLINK_GetDebugInfo(0x100) -- Value=0xE00FF000  returns 0x00 (0000ms, 0212ms total)
T41C4 000:296 JLINK_GetDebugInfo(0x101) -- Value=0x00000000  returns 0x00 (0000ms, 0212ms total)
T41C4 000:296 JLINK_ReadMem (0xE0041FF0, 0x0010 Bytes, ...) -- CPU is running -- CPU_ReadMem(16 bytes @ 0xE0041FF0) - Data: 00 00 00 00 00 00 00 00 00 00 00 00 00 00 00 00  returns 0x00 (0001ms, 0213ms total)
T41C4 000:297 JLINK_GetDebugInfo(0x102) -- Value=0x00000000  returns 0x00 (0000ms, 0213ms total)
T41C4 000:297 JLINK_GetDebugInfo(0x103) -- Value=0xE0040000  returns 0x00 (0000ms, 0213ms total)
T41C4 000:297 JLINK_GetDebugInfo(0x104) -- Value=0xE0000000  returns 0x00 (0000ms, 0213ms total)
T41C4 000:297 JLINK_GetDebugInfo(0x105) -- Value=0xE0001000  returns 0x00 (0000ms, 0213ms total)
T41C4 000:297 JLINK_GetDebugInfo(0x106) -- Value=0xE0002000  returns 0x00 (0000ms, 0213ms total)
T41C4 000:297 JLINK_GetDebugInfo(0x107) -- Value=0xE000E000  returns 0x00 (0000ms, 0213ms total)
T41C4 000:297 JLINK_GetDebugInfo(0x10C) -- Value=0xE000EDF0  returns 0x00 (0000ms, 0213ms total)
T41C4 000:297 JLINK_ReadMemU32(0xE000ED00, 0x0001 Items, ...) -- CPU is running -- CPU_ReadMem(4 bytes @ 0xE000ED00) - Data: 31 C2 1F 41  returns 0x01 (0001ms, 0214ms total)
T41C4 000:298 JLINK_SetResetType(JLINKARM_RESET_TYPE_NORMAL)  returns JLINKARM_RESET_TYPE_NORMAL (0000ms, 0214ms total)
T41C4 000:298 JLINK_Reset() -- CPU is running -- CPU_WriteMem(4 bytes @ 0xE000EDF0) -- CPU is running -- CPU_WriteMem(4 bytes @ 0xE000EDFC) >0x35 TIF> -- CPU is running -- CPU_WriteMem(4 bytes @ 0xE000ED0C) -- CPU is running -- CPU_ReadMem(4 bytes @ 0xE000EDF0) -- CPU is running -- CPU_ReadMem(4 bytes @ 0xE000EDF0) -- CPU is running -- CPU_WriteMem(4 bytes @ 0xE000EDF0) -- CPU is running -- CPU_WriteMem(4 bytes @ 0xE000EDFC) -- CPU is running -- CPU_ReadMem(4 bytes @ 0xE000EDF0)
 -- CPU_WriteMem(4 bytes @ 0xE0002000) -- CPU_ReadMem(4 bytes @ 0xE000EDFC) -- CPU_ReadMem(4 bytes @ 0xE0001000) (0020ms, 0234ms total)
T41C4 000:318 JLINK_Halt()  returns 0x00 (0000ms, 0234ms total)
T41C4 000:318 JLINK_IsHalted()  returns TRUE (0000ms, 0234ms total)
T41C4 000:318 JLINK_ReadMemU32(0xE000EDF0, 0x0001 Items, ...) -- CPU_ReadMem(4 bytes @ 0xE000EDF0) - Data: 03 00 03 00  returns 0x01 (0001ms, 0235ms total)
T41C4 000:319 JLINK_WriteU32(0xE000EDF0, 0xA05F0003) -- CPU_WriteMem(4 bytes @ 0xE000EDF0)  returns 0x00 (0001ms, 0236ms total)
T41C4 000:320 JLINK_WriteU32(0xE000EDFC, 0x01000000) -- CPU_WriteMem(4 bytes @ 0xE000EDFC)  returns 0x00 (0001ms, 0237ms total)
T41C4 000:331 JLINK_GetHWStatus(...)  returns 0x00 (0001ms, 0238ms total)
T41C4 000:338 JLINK_GetNumBPUnits(Type = 0xFFFFFF00)  returns 0x06 (0000ms, 0238ms total)
T41C4 000:338 JLINK_GetNumBPUnits(Type = 0xF0)  returns 0x2000 (0000ms, 0238ms total)
T41C4 000:338 JLINK_GetNumWPUnits()  returns 0x04 (0000ms, 0238ms total)
T41C4 000:344 JLINK_GetSpeed()  returns 0xFA0 (0000ms, 0238ms total)
T41C4 000:349 JLINK_ReadMemU32(0xE000E004, 0x0001 Items, ...) -- CPU_ReadMem(4 bytes @ 0xE000E004) - Data: 01 00 00 00  returns 0x01 (0001ms, 0239ms total)
T41C4 000:350 JLINK_ReadMemU32(0xE000E004, 0x0001 Items, ...) -- CPU_ReadMem(4 bytes @ 0xE000E004) - Data: 01 00 00 00  returns 0x01 (0001ms, 0240ms total)
T41C4 000:351 JLINK_WriteMem(0xE0001000, 0x001C Bytes, ...) - Data: 01 00 00 00 00 00 00 00 00 00 00 00 00 00 00 00 ... -- CPU_WriteMem(28 bytes @ 0xE0001000)  returns 0x1C (0001ms, 0241ms total)
T41C4 000:352 JLINK_ReadMem (0xE0001000, 0x001C Bytes, ...) -- CPU_ReadMem(28 bytes @ 0xE0001000) - Data: 01 00 00 40 00 00 00 00 00 00 00 00 00 00 00 00 ...  returns 0x00 (0001ms, 0242ms total)
T41C4 000:353 JLINK_Halt()  returns 0x00 (0000ms, 0242ms total)
T41C4 000:353 JLINK_IsHalted()  returns TRUE (0000ms, 0242ms total)
T41C4 000:355 JLINK_WriteMem(0x20000000, 0x0164 Bytes, ...) - Data: 00 BE 0A E0 0D 78 2D 06 68 40 08 24 40 00 00 D3 ... -- CPU_WriteMem(356 bytes @ 0x20000000)  returns 0x164 (0006ms, 0248ms total)
T41C4 000:361 JLINK_WriteReg(R0, 0x08000000)  returns 0x00 (0000ms, 0248ms total)
T41C4 000:361 JLINK_WriteReg(R1, 0x044AA200)  returns 0x00 (0000ms, 0248ms total)
T41C4 000:361 JLINK_WriteReg(R2, 0x00000001)  returns 0x00 (0000ms, 0248ms total)
T41C4 000:361 JLINK_WriteReg(R3, 0x00000000)  returns 0x00 (0000ms, 0248ms total)
T41C4 000:361 JLINK_WriteReg(R4, 0x00000000)  returns 0x00 (0000ms, 0248ms total)
T41C4 000:361 JLINK_WriteReg(R5, 0x00000000)  returns 0x00 (0000ms, 0248ms total)
T41C4 000:361 JLINK_WriteReg(R6, 0x00000000)  returns 0x00 (0000ms, 0248ms total)
T41C4 000:361 JLINK_WriteReg(R7, 0x00000000)  returns 0x00 (0000ms, 0248ms total)
T41C4 000:361 JLINK_WriteReg(R8, 0x00000000)  returns 0x00 (0000ms, 0248ms total)
T41C4 000:361 JLINK_WriteReg(R9, 0x20000160)  returns 0x00 (0000ms, 0248ms total)
T41C4 000:361 JLINK_WriteReg(R10, 0x00000000)  returns 0x00 (0000ms, 0248ms total)
T41C4 000:361 JLINK_WriteReg(R11, 0x00000000)  returns 0x00 (0000ms, 0248ms total)
T41C4 000:361 JLINK_WriteReg(R12, 0x00000000)  returns 0x00 (0000ms, 0248ms total)
T41C4 000:361 JLINK_WriteReg(R13 (SP), 0x20001000)  returns 0x00 (0000ms, 0248ms total)
T41C4 000:361 JLINK_WriteReg(R14, 0x20000001)  returns 0x00 (0000ms, 0248ms total)
T41C4 000:361 JLINK_WriteReg(R15 (PC), 0x20000038)  returns 0x00 (0000ms, 0248ms total)
T41C4 000:361 JLINK_WriteReg(XPSR, 0x01000000)  returns 0x00 (0000ms, 0248ms total)
T41C4 000:361 JLINK_WriteReg(MSP, 0x20001000)  returns 0x00 (0000ms, 0248ms total)
T41C4 000:361 JLINK_WriteReg(PSP, 0x20001000)  returns 0x00 (0000ms, 0248ms total)
T41C4 000:361 JLINK_WriteReg(CFBP, 0x00000000)  returns 0x00 (0000ms, 0248ms total)
T41C4 000:361 JLINK_SetBPEx(Addr = 0x20000000, Type = 0xFFFFFFF2) -- CPU_ReadMem(2 bytes @ 0x20000000)  returns 0x00000001 (0001ms, 0249ms total)
T41C4 000:362 JLINK_Go() -- CPU_WriteMem(2 bytes @ 0x20000000) -- CPU_ReadMem(4 bytes @ 0xE0001000) -- CPU_WriteMem(4 bytes @ 0xE0002008) -- CPU_WriteMem(4 bytes @ 0xE000200C) -- CPU_WriteMem(4 bytes @ 0xE0002010) -- CPU_WriteMem(4 bytes @ 0xE0002014) -- CPU_WriteMem(4 bytes @ 0xE0002018) -- CPU_WriteMem(4 bytes @ 0xE000201C) -- CPU_WriteMem(4 bytes @ 0xE0001004) (0007ms, 0256ms total)
T41C4 000:369 JLINK_IsHalted() -- CPU_ReadMem(2 bytes @ 0x20000000)  returns TRUE (0005ms, 0261ms total)
T41C4 000:374 JLINK_ReadReg(R15 (PC))  returns 0x20000000 (0000ms, 0256ms total)
T41C4 000:374 JLINK_ClrBPEx(BPHandle = 0x00000001)  returns 0x00 (0000ms, 0256ms total)
T41C4 000:374 JLINK_ReadReg(R0)  returns 0x00000000 (0000ms, 0256ms total)
T41C4 000:374 JLINK_WriteReg(R0, 0x08000000)  returns 0x00 (0000ms, 0256ms total)
T41C4 000:374 JLINK_WriteReg(R1, 0x044AA200)  returns 0x00 (0000ms, 0256ms total)
T41C4 000:374 JLINK_WriteReg(R2, 0x00000001)  returns 0x00 (0000ms, 0256ms total)
T41C4 000:374 JLINK_WriteReg(R3, 0x00000000)  returns 0x00 (0000ms, 0256ms total)
T41C4 000:374 JLINK_WriteReg(R4, 0x00000000)  returns 0x00 (0000ms, 0256ms total)
T41C4 000:374 JLINK_WriteReg(R5, 0x00000000)  returns 0x00 (0000ms, 0256ms total)
T41C4 000:374 JLINK_WriteReg(R6, 0x00000000)  returns 0x00 (0000ms, 0256ms total)
T41C4 000:374 JLINK_WriteReg(R7, 0x00000000)  returns 0x00 (0000ms, 0256ms total)
T41C4 000:374 JLINK_WriteReg(R8, 0x00000000)  returns 0x00 (0000ms, 0256ms total)
T41C4 000:374 JLINK_WriteReg(R9, 0x20000160)  returns 0x00 (0000ms, 0256ms total)
T41C4 000:374 JLINK_WriteReg(R10, 0x00000000)  returns 0x00 (0000ms, 0256ms total)
T41C4 000:374 JLINK_WriteReg(R11, 0x00000000)  returns 0x00 (0000ms, 0256ms total)
T41C4 000:374 JLINK_WriteReg(R12, 0x00000000)  returns 0x00 (0000ms, 0256ms total)
T41C4 000:374 JLINK_WriteReg(R13 (SP), 0x20001000)  returns 0x00 (0000ms, 0256ms total)
T41C4 000:374 JLINK_WriteReg(R14, 0x20000001)  returns 0x00 (0000ms, 0256ms total)
T41C4 000:374 JLINK_WriteReg(R15 (PC), 0x2000007C)  returns 0x00 (0000ms, 0256ms total)
T41C4 000:374 JLINK_WriteReg(XPSR, 0x01000000)  returns 0x00 (0000ms, 0256ms total)
T41C4 000:374 JLINK_WriteReg(MSP, 0x20001000)  returns 0x00 (0000ms, 0256ms total)
T41C4 000:374 JLINK_WriteReg(PSP, 0x20001000)  returns 0x00 (0000ms, 0256ms total)
T41C4 000:374 JLINK_WriteReg(CFBP, 0x00000000)  returns 0x00 (0000ms, 0256ms total)
T41C4 000:374 JLINK_SetBPEx(Addr = 0x20000000, Type = 0xFFFFFFF2)  returns 0x00000002 (0000ms, 0256ms total)
T41C4 000:374 JLINK_Go() -- CPU_ReadMem(4 bytes @ 0xE0001000) (0003ms, 0259ms total)
T41C4 000:377 JLINK_IsHalted()  returns FALSE (0000ms, 0259ms total)
T41C4 000:418 JLINK_IsHalted() -- CPU_ReadMem(2 bytes @ 0x20000000)  returns TRUE (0004ms, 0263ms total)
T41C4 000:422 JLINK_ReadReg(R15 (PC))  returns 0x20000000 (0000ms, 0259ms total)
T41C4 000:422 JLINK_ClrBPEx(BPHandle = 0x00000002)  returns 0x00 (0000ms, 0259ms total)
T41C4 000:422 JLINK_ReadReg(R0)  returns 0x00000000 (0000ms, 0259ms total)
T41C4 000:473 JLINK_WriteReg(R0, 0x00000001)  returns 0x00 (0000ms, 0259ms total)
T41C4 000:473 JLINK_WriteReg(R1, 0x044AA200)  returns 0x00 (0000ms, 0259ms total)
T41C4 000:473 JLINK_WriteReg(R2, 0x00000001)  returns 0x00 (0000ms, 0259ms total)
T41C4 000:473 JLINK_WriteReg(R3, 0x00000000)  returns 0x00 (0000ms, 0259ms total)
T41C4 000:473 JLINK_WriteReg(R4, 0x00000000)  returns 0x00 (0000ms, 0259ms total)
T41C4 000:473 JLINK_WriteReg(R5, 0x00000000)  returns 0x00 (0000ms, 0259ms total)
T41C4 000:473 JLINK_WriteReg(R6, 0x00000000)  returns 0x00 (0000ms, 0259ms total)
T41C4 000:473 JLINK_WriteReg(R7, 0x00000000)  returns 0x00 (0000ms, 0259ms total)
T41C4 000:473 JLINK_WriteReg(R8, 0x00000000)  returns 0x00 (0000ms, 0259ms total)
T41C4 000:473 JLINK_WriteReg(R9, 0x20000160)  returns 0x00 (0000ms, 0259ms total)
T41C4 000:473 JLINK_WriteReg(R10, 0x00000000)  returns 0x00 (0000ms, 0259ms total)
T41C4 000:473 JLINK_WriteReg(R11, 0x00000000)  returns 0x00 (0000ms, 0259ms total)
T41C4 000:473 JLINK_WriteReg(R12, 0x00000000)  returns 0x00 (0000ms, 0259ms total)
T41C4 000:473 JLINK_WriteReg(R13 (SP), 0x20001000)  returns 0x00 (0000ms, 0259ms total)
T41C4 000:473 JLINK_WriteReg(R14, 0x20000001)  returns 0x00 (0000ms, 0259ms total)
T41C4 000:473 JLINK_WriteReg(R15 (PC), 0x2000006A)  returns 0x00 (0000ms, 0259ms total)
T41C4 000:473 JLINK_WriteReg(XPSR, 0x01000000)  returns 0x00 (0000ms, 0259ms total)
T41C4 000:473 JLINK_WriteReg(MSP, 0x20001000)  returns 0x00 (0000ms, 0259ms total)
T41C4 000:473 JLINK_WriteReg(PSP, 0x20001000)  returns 0x00 (0000ms, 0259ms total)
T41C4 000:473 JLINK_WriteReg(CFBP, 0x00000000)  returns 0x00 (0000ms, 0259ms total)
T41C4 000:473 JLINK_SetBPEx(Addr = 0x20000000, Type = 0xFFFFFFF2)  returns 0x00000003 (0000ms, 0259ms total)
T41C4 000:473 JLINK_Go() -- CPU_ReadMem(4 bytes @ 0xE0001000) (0004ms, 0263ms total)
T41C4 000:478 JLINK_IsHalted() -- CPU_ReadMem(2 bytes @ 0x20000000)  returns TRUE (0004ms, 0267ms total)
T41C4 000:482 JLINK_ReadReg(R15 (PC))  returns 0x20000000 (0000ms, 0263ms total)
T41C4 000:482 JLINK_ClrBPEx(BPHandle = 0x00000003)  returns 0x00 (0000ms, 0263ms total)
T41C4 000:482 JLINK_ReadReg(R0)  returns 0x00000000 (0000ms, 0263ms total)
T41C4 000:487 JLINK_WriteMem(0x20000000, 0x0164 Bytes, ...) - Data: 00 BE 0A E0 0D 78 2D 06 68 40 08 24 40 00 00 D3 ... -- CPU_WriteMem(356 bytes @ 0x20000000)  returns 0x164 (0004ms, 0267ms total)
T41C4 000:491 JLINK_WriteReg(R0, 0x08000000)  returns 0x00 (0000ms, 0267ms total)
T41C4 000:491 JLINK_WriteReg(R1, 0x044AA200)  returns 0x00 (0000ms, 0267ms total)
T41C4 000:491 JLINK_WriteReg(R2, 0x00000002)  returns 0x00 (0000ms, 0267ms total)
T41C4 000:491 JLINK_WriteReg(R3, 0x00000000)  returns 0x00 (0000ms, 0267ms total)
T41C4 000:491 JLINK_WriteReg(R4, 0x00000000)  returns 0x00 (0000ms, 0267ms total)
T41C4 000:491 JLINK_WriteReg(R5, 0x00000000)  returns 0x00 (0000ms, 0267ms total)
T41C4 000:491 JLINK_WriteReg(R6, 0x00000000)  returns 0x00 (0000ms, 0267ms total)
T41C4 000:491 JLINK_WriteReg(R7, 0x00000000)  returns 0x00 (0000ms, 0267ms total)
T41C4 000:493 JLINK_WriteReg(R8, 0x00000000)  returns 0x00 (0000ms, 0267ms total)
T41C4 000:493 JLINK_WriteReg(R9, 0x20000160)  returns 0x00 (0000ms, 0267ms total)
T41C4 000:493 JLINK_WriteReg(R10, 0x00000000)  returns 0x00 (0000ms, 0267ms total)
T41C4 000:493 JLINK_WriteReg(R11, 0x00000000)  returns 0x00 (0000ms, 0267ms total)
T41C4 000:493 JLINK_WriteReg(R12, 0x00000000)  returns 0x00 (0000ms, 0267ms total)
T41C4 000:493 JLINK_WriteReg(R13 (SP), 0x20001000)  returns 0x00 (0000ms, 0267ms total)
T41C4 000:493 JLINK_WriteReg(R14, 0x20000001)  returns 0x00 (0000ms, 0267ms total)
T41C4 000:493 JLINK_WriteReg(R15 (PC), 0x20000038)  returns 0x00 (0000ms, 0267ms total)
T41C4 000:493 JLINK_WriteReg(XPSR, 0x01000000)  returns 0x00 (0000ms, 0267ms total)
T41C4 000:493 JLINK_WriteReg(MSP, 0x20001000)  returns 0x00 (0000ms, 0267ms total)
T41C4 000:493 JLINK_WriteReg(PSP, 0x20001000)  returns 0x00 (0000ms, 0267ms total)
T41C4 000:493 JLINK_WriteReg(CFBP, 0x00000000)  returns 0x00 (0000ms, 0267ms total)
T41C4 000:493 JLINK_SetBPEx(Addr = 0x20000000, Type = 0xFFFFFFF2) -- CPU_ReadMem(2 bytes @ 0x20000000)  returns 0x00000004 (0000ms, 0267ms total)
T41C4 000:493 JLINK_Go() -- CPU_WriteMem(2 bytes @ 0x20000000) -- CPU_ReadMem(4 bytes @ 0xE0001000) (0004ms, 0271ms total)
T41C4 000:497 JLINK_IsHalted() -- CPU_ReadMem(2 bytes @ 0x20000000)  returns TRUE (0005ms, 0276ms total)
T41C4 000:502 JLINK_ReadReg(R15 (PC))  returns 0x20000000 (0000ms, 0271ms total)
T41C4 000:502 JLINK_ClrBPEx(BPHandle = 0x00000004)  returns 0x00 (0000ms, 0271ms total)
T41C4 000:502 JLINK_ReadReg(R0)  returns 0x00000000 (0000ms, 0271ms total)
T41C4 000:502 JLINK_WriteMem(0x20000164, 0x0400 Bytes, ...) - Data: 98 4F 00 20 99 01 00 08 CF 28 00 08 25 26 00 08 ... -- CPU_WriteMem(1024 bytes @ 0x20000164)  returns 0x400 (0012ms, 0283ms total)
T41C4 000:514 JLINK_WriteReg(R0, 0x08000000)  returns 0x00 (0000ms, 0283ms total)
T41C4 000:514 JLINK_WriteReg(R1, 0x00000400)  returns 0x00 (0000ms, 0283ms total)
T41C4 000:514 JLINK_WriteReg(R2, 0x20000164)  returns 0x00 (0000ms, 0283ms total)
T41C4 000:514 JLINK_WriteReg(R3, 0x00000000)  returns 0x00 (0000ms, 0283ms total)
T41C4 000:514 JLINK_WriteReg(R4, 0x00000000)  returns 0x00 (0000ms, 0283ms total)
T41C4 000:514 JLINK_WriteReg(R5, 0x00000000)  returns 0x00 (0000ms, 0283ms total)
T41C4 000:514 JLINK_WriteReg(R6, 0x00000000)  returns 0x00 (0000ms, 0283ms total)
T41C4 000:514 JLINK_WriteReg(R7, 0x00000000)  returns 0x00 (0000ms, 0283ms total)
T41C4 000:514 JLINK_WriteReg(R8, 0x00000000)  returns 0x00 (0000ms, 0283ms total)
T41C4 000:514 JLINK_WriteReg(R9, 0x20000160)  returns 0x00 (0000ms, 0283ms total)
T41C4 000:514 JLINK_WriteReg(R10, 0x00000000)  returns 0x00 (0000ms, 0283ms total)
T41C4 000:514 JLINK_WriteReg(R11, 0x00000000)  returns 0x00 (0000ms, 0283ms total)
T41C4 000:514 JLINK_WriteReg(R12, 0x00000000)  returns 0x00 (0000ms, 0283ms total)
T41C4 000:514 JLINK_WriteReg(R13 (SP), 0x20001000)  returns 0x00 (0000ms, 0283ms total)
T41C4 000:514 JLINK_WriteReg(R14, 0x20000001)  returns 0x00 (0000ms, 0283ms total)
T41C4 000:514 JLINK_WriteReg(R15 (PC), 0x200000F4)  returns 0x00 (0000ms, 0283ms total)
T41C4 000:514 JLINK_WriteReg(XPSR, 0x01000000)  returns 0x00 (0000ms, 0283ms total)
T41C4 000:514 JLINK_WriteReg(MSP, 0x20001000)  returns 0x00 (0000ms, 0283ms total)
T41C4 000:514 JLINK_WriteReg(PSP, 0x20001000)  returns 0x00 (0000ms, 0283ms total)
T41C4 000:515 JLINK_WriteReg(CFBP, 0x00000000)  returns 0x00 (0000ms, 0284ms total)
T41C4 000:515 JLINK_SetBPEx(Addr = 0x20000000, Type = 0xFFFFFFF2)  returns 0x00000005 (0000ms, 0284ms total)
T41C4 000:515 JLINK_Go() -- CPU_ReadMem(4 bytes @ 0xE0001000) (0002ms, 0286ms total)
T41C4 000:518 JLINK_IsHalted()  returns FALSE (0001ms, 0288ms total)
T41C4 000:527 JLINK_IsHalted()  returns FALSE (0001ms, 0288ms total)
T41C4 000:529 JLINK_IsHalted()  returns FALSE (0001ms, 0288ms total)
T41C4 000:531 JLINK_IsHalted()  returns FALSE (0001ms, 0288ms total)
T41C4 000:533 JLINK_IsHalted()  returns FALSE (0001ms, 0288ms total)
T41C4 000:536 JLINK_IsHalted()  returns FALSE (0000ms, 0287ms total)
T41C4 000:538 JLINK_IsHalted()  returns FALSE (0000ms, 0287ms total)
T41C4 000:540 JLINK_IsHalted()  returns FALSE (0001ms, 0288ms total)
T41C4 000:543 JLINK_IsHalted()  returns FALSE (0000ms, 0287ms total)
T41C4 000:545 JLINK_IsHalted()  returns FALSE (0000ms, 0287ms total)
T41C4 000:547 JLINK_IsHalted()  returns FALSE (0001ms, 0288ms total)
T41C4 000:550 JLINK_IsHalted() -- CPU_ReadMem(2 bytes @ 0x20000000)  returns TRUE (0003ms, 0290ms total)
T41C4 000:553 JLINK_ReadReg(R15 (PC))  returns 0x20000000 (0000ms, 0287ms total)
T41C4 000:553 JLINK_ClrBPEx(BPHandle = 0x00000005)  returns 0x00 (0000ms, 0287ms total)
T41C4 000:553 JLINK_ReadReg(R0)  returns 0x00000000 (0000ms, 0287ms total)
T41C4 000:554 JLINK_WriteMem(0x20000164, 0x0400 Bytes, ...) - Data: FE 4F 80 46 81 EA 03 00 C0 0F 0C 46 00 90 21 F0 ... -- CPU_WriteMem(1024 bytes @ 0x20000164)  returns 0x400 (0013ms, 0300ms total)
T41C4 000:567 JLINK_WriteReg(R0, 0x08000400)  returns 0x00 (0000ms, 0300ms total)
T41C4 000:567 JLINK_WriteReg(R1, 0x00000400)  returns 0x00 (0000ms, 0300ms total)
T41C4 000:567 JLINK_WriteReg(R2, 0x20000164)  returns 0x00 (0000ms, 0300ms total)
T41C4 000:567 JLINK_WriteReg(R3, 0x00000000)  returns 0x00 (0000ms, 0300ms total)
T41C4 000:567 JLINK_WriteReg(R4, 0x00000000)  returns 0x00 (0000ms, 0300ms total)
T41C4 000:567 JLINK_WriteReg(R5, 0x00000000)  returns 0x00 (0000ms, 0300ms total)
T41C4 000:567 JLINK_WriteReg(R6, 0x00000000)  returns 0x00 (0000ms, 0300ms total)
T41C4 000:567 JLINK_WriteReg(R7, 0x00000000)  returns 0x00 (0000ms, 0300ms total)
T41C4 000:567 JLINK_WriteReg(R8, 0x00000000)  returns 0x00 (0000ms, 0300ms total)
T41C4 000:567 JLINK_WriteReg(R9, 0x20000160)  returns 0x00 (0000ms, 0300ms total)
T41C4 000:567 JLINK_WriteReg(R10, 0x00000000)  returns 0x00 (0000ms, 0300ms total)
T41C4 000:567 JLINK_WriteReg(R11, 0x00000000)  returns 0x00 (0000ms, 0300ms total)
T41C4 000:567 JLINK_WriteReg(R12, 0x00000000)  returns 0x00 (0000ms, 0300ms total)
T41C4 000:567 JLINK_WriteReg(R13 (SP), 0x20001000)  returns 0x00 (0000ms, 0300ms total)
T41C4 000:567 JLINK_WriteReg(R14, 0x20000001)  returns 0x00 (0001ms, 0301ms total)
T41C4 000:568 JLINK_WriteReg(R15 (PC), 0x200000F4)  returns 0x00 (0000ms, 0301ms total)
T41C4 000:568 JLINK_WriteReg(XPSR, 0x01000000)  returns 0x00 (0000ms, 0301ms total)
T41C4 000:568 JLINK_WriteReg(MSP, 0x20001000)  returns 0x00 (0000ms, 0301ms total)
T41C4 000:568 JLINK_WriteReg(PSP, 0x20001000)  returns 0x00 (0000ms, 0301ms total)
T41C4 000:568 JLINK_WriteReg(CFBP, 0x00000000)  returns 0x00 (0000ms, 0301ms total)
T41C4 000:568 JLINK_SetBPEx(Addr = 0x20000000, Type = 0xFFFFFFF2)  returns 0x00000006 (0000ms, 0301ms total)
T41C4 000:568 JLINK_Go() -- CPU_ReadMem(4 bytes @ 0xE0001000) (0005ms, 0306ms total)
T41C4 000:573 JLINK_IsHalted()  returns FALSE (0000ms, 0306ms total)
T41C4 000:581 JLINK_IsHalted()  returns FALSE (0001ms, 0307ms total)
T41C4 000:583 JLINK_IsHalted()  returns FALSE (0000ms, 0306ms total)
T41C4 000:586 JLINK_IsHalted()  returns FALSE (0001ms, 0307ms total)
T41C4 000:588 JLINK_IsHalted()  returns FALSE (0000ms, 0306ms total)
T41C4 000:590 JLINK_IsHalted()  returns FALSE (0000ms, 0306ms total)
T41C4 000:592 JLINK_IsHalted()  returns FALSE (0000ms, 0306ms total)
T41C4 000:594 JLINK_IsHalted()  returns FALSE (0000ms, 0306ms total)
T41C4 000:596 JLINK_IsHalted()  returns FALSE (0000ms, 0306ms total)
T41C4 000:598 JLINK_IsHalted()  returns FALSE (0000ms, 0306ms total)
T41C4 000:600 JLINK_IsHalted()  returns FALSE (0000ms, 0306ms total)
T41C4 000:602 JLINK_IsHalted()  returns FALSE (0001ms, 0307ms total)
T41C4 000:605 JLINK_IsHalted() -- CPU_ReadMem(2 bytes @ 0x20000000)  returns TRUE (0005ms, 0311ms total)
T41C4 000:610 JLINK_ReadReg(R15 (PC))  returns 0x20000000 (0000ms, 0306ms total)
T41C4 000:610 JLINK_ClrBPEx(BPHandle = 0x00000006)  returns 0x00 (0000ms, 0306ms total)
T41C4 000:610 JLINK_ReadReg(R0)  returns 0x00000000 (0000ms, 0306ms total)
T41C4 000:610 JLINK_WriteMem(0x20000164, 0x0400 Bytes, ...) - Data: 02 F5 49 1B 04 FA 02 F5 28 44 15 1E A2 F1 01 02 ... -- CPU_WriteMem(1024 bytes @ 0x20000164)  returns 0x400 (0013ms, 0319ms total)
T41C4 000:623 JLINK_WriteReg(R0, 0x08000800)  returns 0x00 (0000ms, 0319ms total)
T41C4 000:623 JLINK_WriteReg(R1, 0x00000400)  returns 0x00 (0000ms, 0319ms total)
T41C4 000:623 JLINK_WriteReg(R2, 0x20000164)  returns 0x00 (0000ms, 0319ms total)
T41C4 000:623 JLINK_WriteReg(R3, 0x00000000)  returns 0x00 (0000ms, 0319ms total)
T41C4 000:623 JLINK_WriteReg(R4, 0x00000000)  returns 0x00 (0000ms, 0319ms total)
T41C4 000:623 JLINK_WriteReg(R5, 0x00000000)  returns 0x00 (0000ms, 0319ms total)
T41C4 000:623 JLINK_WriteReg(R6, 0x00000000)  returns 0x00 (0000ms, 0319ms total)
T41C4 000:623 JLINK_WriteReg(R7, 0x00000000)  returns 0x00 (0000ms, 0319ms total)
T41C4 000:623 JLINK_WriteReg(R8, 0x00000000)  returns 0x00 (0000ms, 0319ms total)
T41C4 000:623 JLINK_WriteReg(R9, 0x20000160)  returns 0x00 (0000ms, 0319ms total)
T41C4 000:623 JLINK_WriteReg(R10, 0x00000000)  returns 0x00 (0000ms, 0319ms total)
T41C4 000:623 JLINK_WriteReg(R11, 0x00000000)  returns 0x00 (0000ms, 0319ms total)
T41C4 000:623 JLINK_WriteReg(R12, 0x00000000)  returns 0x00 (0001ms, 0320ms total)
T41C4 000:624 JLINK_WriteReg(R13 (SP), 0x20001000)  returns 0x00 (0000ms, 0320ms total)
T41C4 000:624 JLINK_WriteReg(R14, 0x20000001)  returns 0x00 (0000ms, 0320ms total)
T41C4 000:624 JLINK_WriteReg(R15 (PC), 0x200000F4)  returns 0x00 (0000ms, 0320ms total)
T41C4 000:624 JLINK_WriteReg(XPSR, 0x01000000)  returns 0x00 (0000ms, 0320ms total)
T41C4 000:624 JLINK_WriteReg(MSP, 0x20001000)  returns 0x00 (0000ms, 0320ms total)
T41C4 000:624 JLINK_WriteReg(PSP, 0x20001000)  returns 0x00 (0000ms, 0320ms total)
T41C4 000:624 JLINK_WriteReg(CFBP, 0x00000000)  returns 0x00 (0000ms, 0320ms total)
T41C4 000:624 JLINK_SetBPEx(Addr = 0x20000000, Type = 0xFFFFFFF2)  returns 0x00000007 (0000ms, 0320ms total)
T41C4 000:624 JLINK_Go() -- CPU_ReadMem(4 bytes @ 0xE0001000) (0004ms, 0324ms total)
T41C4 000:628 JLINK_IsHalted()  returns FALSE (0001ms, 0325ms total)
T41C4 000:646 JLINK_IsHalted()  returns FALSE (0001ms, 0325ms total)
T41C4 000:649 JLINK_IsHalted()  returns FALSE (0001ms, 0325ms total)
T41C4 000:652 JLINK_IsHalted()  returns FALSE (0001ms, 0325ms total)
T41C4 000:655 JLINK_IsHalted()  returns FALSE (0001ms, 0325ms total)
T41C4 000:658 JLINK_IsHalted()  returns FALSE (0000ms, 0324ms total)
T41C4 000:660 JLINK_IsHalted() -- CPU_ReadMem(2 bytes @ 0x20000000)  returns TRUE (0005ms, 0329ms total)
T41C4 000:665 JLINK_ReadReg(R15 (PC))  returns 0x20000000 (0000ms, 0324ms total)
T41C4 000:665 JLINK_ClrBPEx(BPHandle = 0x00000007)  returns 0x00 (0000ms, 0324ms total)
T41C4 000:665 JLINK_ReadReg(R0)  returns 0x00000000 (0000ms, 0324ms total)
T41C4 000:665 JLINK_WriteMem(0x20000164, 0x0400 Bytes, ...) - Data: F7 62 0A 68 07 23 06 68 0A 2A 0A D3 F7 68 0A 3A ... -- CPU_WriteMem(1024 bytes @ 0x20000164)  returns 0x400 (0013ms, 0337ms total)
T41C4 000:678 JLINK_WriteReg(R0, 0x08000C00)  returns 0x00 (0000ms, 0337ms total)
T41C4 000:678 JLINK_WriteReg(R1, 0x00000400)  returns 0x00 (0000ms, 0337ms total)
T41C4 000:678 JLINK_WriteReg(R2, 0x20000164)  returns 0x00 (0000ms, 0337ms total)
T41C4 000:678 JLINK_WriteReg(R3, 0x00000000)  returns 0x00 (0000ms, 0337ms total)
T41C4 000:678 JLINK_WriteReg(R4, 0x00000000)  returns 0x00 (0000ms, 0337ms total)
T41C4 000:678 JLINK_WriteReg(R5, 0x00000000)  returns 0x00 (0000ms, 0337ms total)
T41C4 000:678 JLINK_WriteReg(R6, 0x00000000)  returns 0x00 (0000ms, 0337ms total)
T41C4 000:678 JLINK_WriteReg(R7, 0x00000000)  returns 0x00 (0000ms, 0337ms total)
T41C4 000:678 JLINK_WriteReg(R8, 0x00000000)  returns 0x00 (0000ms, 0337ms total)
T41C4 000:678 JLINK_WriteReg(R9, 0x20000160)  returns 0x00 (0000ms, 0337ms total)
T41C4 000:678 JLINK_WriteReg(R10, 0x00000000)  returns 0x00 (0000ms, 0337ms total)
T41C4 000:678 JLINK_WriteReg(R11, 0x00000000)  returns 0x00 (0000ms, 0337ms total)
T41C4 000:678 JLINK_WriteReg(R12, 0x00000000)  returns 0x00 (0000ms, 0337ms total)
T41C4 000:678 JLINK_WriteReg(R13 (SP), 0x20001000)  returns 0x00 (0000ms, 0337ms total)
T41C4 000:678 JLINK_WriteReg(R14, 0x20000001)  returns 0x00 (0000ms, 0337ms total)
T41C4 000:678 JLINK_WriteReg(R15 (PC), 0x200000F4)  returns 0x00 (0000ms, 0337ms total)
T41C4 000:678 JLINK_WriteReg(XPSR, 0x01000000)  returns 0x00 (0000ms, 0337ms total)
T41C4 000:678 JLINK_WriteReg(MSP, 0x20001000)  returns 0x00 (0000ms, 0337ms total)
T41C4 000:678 JLINK_WriteReg(PSP, 0x20001000)  returns 0x00 (0000ms, 0337ms total)
T41C4 000:678 JLINK_WriteReg(CFBP, 0x00000000)  returns 0x00 (0000ms, 0337ms total)
T41C4 000:678 JLINK_SetBPEx(Addr = 0x20000000, Type = 0xFFFFFFF2)  returns 0x00000008 (0000ms, 0337ms total)
T41C4 000:678 JLINK_Go() -- CPU_ReadMem(4 bytes @ 0xE0001000) (0003ms, 0340ms total)
T41C4 000:681 JLINK_IsHalted()  returns FALSE (0001ms, 0341ms total)
T41C4 000:683 JLINK_IsHalted()  returns FALSE (0000ms, 0340ms total)
T41C4 000:685 JLINK_IsHalted()  returns FALSE (0001ms, 0341ms total)
T41C4 000:687 JLINK_IsHalted()  returns FALSE (0001ms, 0341ms total)
T41C4 000:689 JLINK_IsHalted()  returns FALSE (0000ms, 0340ms total)
T41C4 000:691 JLINK_IsHalted()  returns FALSE (0000ms, 0340ms total)
T41C4 000:697 JLINK_IsHalted()  returns FALSE (0001ms, 0341ms total)
T41C4 000:700 JLINK_IsHalted()  returns FALSE (0000ms, 0340ms total)
T41C4 000:702 JLINK_IsHalted()  returns FALSE (0000ms, 0340ms total)
T41C4 000:704 JLINK_IsHalted()  returns FALSE (0000ms, 0340ms total)
T41C4 000:706 JLINK_IsHalted()  returns FALSE (0000ms, 0340ms total)
T41C4 000:708 JLINK_IsHalted()  returns FALSE (0001ms, 0341ms total)
T41C4 000:711 JLINK_IsHalted()  returns FALSE (0000ms, 0340ms total)
T41C4 000:713 JLINK_IsHalted() -- CPU_ReadMem(2 bytes @ 0x20000000)  returns TRUE (0004ms, 0344ms total)
T41C4 000:717 JLINK_ReadReg(R15 (PC))  returns 0x20000000 (0000ms, 0340ms total)
T41C4 000:717 JLINK_ClrBPEx(BPHandle = 0x00000008)  returns 0x00 (0000ms, 0340ms total)
T41C4 000:717 JLINK_ReadReg(R0)  returns 0x00000000 (0000ms, 0340ms total)
T41C4 000:717 JLINK_WriteMem(0x20000164, 0x0400 Bytes, ...) - Data: A0 01 F9 E7 00 28 01 40 04 24 01 40 10 B5 04 46 ... -- CPU_WriteMem(1024 bytes @ 0x20000164)  returns 0x400 (0013ms, 0353ms total)
T41C4 000:730 JLINK_WriteReg(R0, 0x08001000)  returns 0x00 (0000ms, 0353ms total)
T41C4 000:730 JLINK_WriteReg(R1, 0x00000400)  returns 0x00 (0000ms, 0353ms total)
T41C4 000:730 JLINK_WriteReg(R2, 0x20000164)  returns 0x00 (0000ms, 0353ms total)
T41C4 000:730 JLINK_WriteReg(R3, 0x00000000)  returns 0x00 (0000ms, 0353ms total)
T41C4 000:730 JLINK_WriteReg(R4, 0x00000000)  returns 0x00 (0000ms, 0353ms total)
T41C4 000:730 JLINK_WriteReg(R5, 0x00000000)  returns 0x00 (0000ms, 0353ms total)
T41C4 000:730 JLINK_WriteReg(R6, 0x00000000)  returns 0x00 (0000ms, 0353ms total)
T41C4 000:730 JLINK_WriteReg(R7, 0x00000000)  returns 0x00 (0000ms, 0353ms total)
T41C4 000:730 JLINK_WriteReg(R8, 0x00000000)  returns 0x00 (0000ms, 0353ms total)
T41C4 000:730 JLINK_WriteReg(R9, 0x20000160)  returns 0x00 (0000ms, 0353ms total)
T41C4 000:730 JLINK_WriteReg(R10, 0x00000000)  returns 0x00 (0000ms, 0353ms total)
T41C4 000:730 JLINK_WriteReg(R11, 0x00000000)  returns 0x00 (0000ms, 0353ms total)
T41C4 000:730 JLINK_WriteReg(R12, 0x00000000)  returns 0x00 (0000ms, 0353ms total)
T41C4 000:730 JLINK_WriteReg(R13 (SP), 0x20001000)  returns 0x00 (0000ms, 0353ms total)
T41C4 000:730 JLINK_WriteReg(R14, 0x20000001)  returns 0x00 (0000ms, 0353ms total)
T41C4 000:730 JLINK_WriteReg(R15 (PC), 0x200000F4)  returns 0x00 (0000ms, 0353ms total)
T41C4 000:730 JLINK_WriteReg(XPSR, 0x01000000)  returns 0x00 (0000ms, 0353ms total)
T41C4 000:730 JLINK_WriteReg(MSP, 0x20001000)  returns 0x00 (0000ms, 0353ms total)
T41C4 000:730 JLINK_WriteReg(PSP, 0x20001000)  returns 0x00 (0000ms, 0353ms total)
T41C4 000:730 JLINK_WriteReg(CFBP, 0x00000000)  returns 0x00 (0000ms, 0353ms total)
T41C4 000:730 JLINK_SetBPEx(Addr = 0x20000000, Type = 0xFFFFFFF2)  returns 0x00000009 (0000ms, 0353ms total)
T41C4 000:730 JLINK_Go() -- CPU_ReadMem(4 bytes @ 0xE0001000) (0004ms, 0357ms total)
T41C4 000:734 JLINK_IsHalted()  returns FALSE (0001ms, 0358ms total)
T41C4 000:737 JLINK_IsHalted()  returns FALSE (0000ms, 0357ms total)
T41C4 000:739 JLINK_IsHalted()  returns FALSE (0001ms, 0358ms total)
T41C4 000:743 JLINK_IsHalted()  returns FALSE (0000ms, 0357ms total)
T41C4 000:745 JLINK_IsHalted()  returns FALSE (0001ms, 0358ms total)
T41C4 000:748 JLINK_IsHalted()  returns FALSE (0001ms, 0358ms total)
T41C4 000:750 JLINK_IsHalted()  returns FALSE (0001ms, 0358ms total)
T41C4 000:752 JLINK_IsHalted()  returns FALSE (0000ms, 0357ms total)
T41C4 000:754 JLINK_IsHalted()  returns FALSE (0000ms, 0357ms total)
T41C4 000:758 JLINK_IsHalted()  returns FALSE (0001ms, 0358ms total)
T41C4 000:761 JLINK_IsHalted()  returns FALSE (0001ms, 0358ms total)
T41C4 000:763 JLINK_IsHalted()  returns FALSE (0000ms, 0357ms total)
T41C4 000:765 JLINK_IsHalted() -- CPU_ReadMem(2 bytes @ 0x20000000)  returns TRUE (0004ms, 0361ms total)
T41C4 000:769 JLINK_ReadReg(R15 (PC))  returns 0x20000000 (0000ms, 0357ms total)
T41C4 000:769 JLINK_ClrBPEx(BPHandle = 0x00000009)  returns 0x00 (0000ms, 0357ms total)
T41C4 000:769 JLINK_ReadReg(R0)  returns 0x00000000 (0000ms, 0357ms total)
T41C4 000:769 JLINK_WriteMem(0x20000164, 0x0400 Bytes, ...) - Data: 1C 09 00 20 0F 48 08 B5 81 69 41 F0 01 01 81 61 ... -- CPU_WriteMem(1024 bytes @ 0x20000164)  returns 0x400 (0013ms, 0370ms total)
T41C4 000:783 JLINK_WriteReg(R0, 0x08001400)  returns 0x00 (0000ms, 0370ms total)
T41C4 000:783 JLINK_WriteReg(R1, 0x00000400)  returns 0x00 (0000ms, 0370ms total)
T41C4 000:783 JLINK_WriteReg(R2, 0x20000164)  returns 0x00 (0000ms, 0370ms total)
T41C4 000:783 JLINK_WriteReg(R3, 0x00000000)  returns 0x00 (0000ms, 0370ms total)
T41C4 000:783 JLINK_WriteReg(R4, 0x00000000)  returns 0x00 (0000ms, 0370ms total)
T41C4 000:783 JLINK_WriteReg(R5, 0x00000000)  returns 0x00 (0000ms, 0370ms total)
T41C4 000:783 JLINK_WriteReg(R6, 0x00000000)  returns 0x00 (0000ms, 0370ms total)
T41C4 000:783 JLINK_WriteReg(R7, 0x00000000)  returns 0x00 (0000ms, 0370ms total)
T41C4 000:783 JLINK_WriteReg(R8, 0x00000000)  returns 0x00 (0000ms, 0370ms total)
T41C4 000:783 JLINK_WriteReg(R9, 0x20000160)  returns 0x00 (0000ms, 0370ms total)
T41C4 000:783 JLINK_WriteReg(R10, 0x00000000)  returns 0x00 (0000ms, 0370ms total)
T41C4 000:783 JLINK_WriteReg(R11, 0x00000000)  returns 0x00 (0000ms, 0370ms total)
T41C4 000:783 JLINK_WriteReg(R12, 0x00000000)  returns 0x00 (0000ms, 0370ms total)
T41C4 000:783 JLINK_WriteReg(R13 (SP), 0x20001000)  returns 0x00 (0000ms, 0370ms total)
T41C4 000:783 JLINK_WriteReg(R14, 0x20000001)  returns 0x00 (0000ms, 0370ms total)
T41C4 000:783 JLINK_WriteReg(R15 (PC), 0x200000F4)  returns 0x00 (0000ms, 0370ms total)
T41C4 000:783 JLINK_WriteReg(XPSR, 0x01000000)  returns 0x00 (0001ms, 0371ms total)
T41C4 000:784 JLINK_WriteReg(MSP, 0x20001000)  returns 0x00 (0000ms, 0371ms total)
T41C4 000:784 JLINK_WriteReg(PSP, 0x20001000)  returns 0x00 (0000ms, 0371ms total)
T41C4 000:784 JLINK_WriteReg(CFBP, 0x00000000)  returns 0x00 (0000ms, 0371ms total)
T41C4 000:784 JLINK_SetBPEx(Addr = 0x20000000, Type = 0xFFFFFFF2)  returns 0x0000000A (0000ms, 0371ms total)
T41C4 000:784 JLINK_Go() -- CPU_ReadMem(4 bytes @ 0xE0001000) (0003ms, 0374ms total)
T41C4 000:787 JLINK_IsHalted()  returns FALSE (0002ms, 0376ms total)
T41C4 000:791 JLINK_IsHalted()  returns FALSE (0000ms, 0374ms total)
T41C4 000:793 JLINK_IsHalted()  returns FALSE (0001ms, 0375ms total)
T41C4 000:796 JLINK_IsHalted()  returns FALSE (0000ms, 0374ms total)
T41C4 000:798 JLINK_IsHalted()  returns FALSE (0000ms, 0374ms total)
T41C4 000:800 JLINK_IsHalted()  returns FALSE (0000ms, 0374ms total)
T41C4 000:802 JLINK_IsHalted()  returns FALSE (0000ms, 0374ms total)
T41C4 000:803 JLINK_IsHalted()  returns FALSE (0001ms, 0375ms total)
T41C4 000:806 JLINK_IsHalted()  returns FALSE (0000ms, 0374ms total)
T41C4 000:808 JLINK_IsHalted()  returns FALSE (0000ms, 0374ms total)
T41C4 000:810 JLINK_IsHalted()  returns FALSE (0001ms, 0375ms total)
T41C4 000:813 JLINK_IsHalted()  returns FALSE (0001ms, 0375ms total)
T41C4 000:816 JLINK_IsHalted()  returns FALSE (0000ms, 0374ms total)
T41C4 000:820 JLINK_IsHalted() -- CPU_ReadMem(2 bytes @ 0x20000000)  returns TRUE (0004ms, 0378ms total)
T41C4 000:824 JLINK_ReadReg(R15 (PC))  returns 0x20000000 (0000ms, 0374ms total)
T41C4 000:824 JLINK_ClrBPEx(BPHandle = 0x0000000A)  returns 0x00 (0000ms, 0374ms total)
T41C4 000:824 JLINK_ReadReg(R0)  returns 0x00000000 (0000ms, 0374ms total)
T41C4 000:824 JLINK_WriteMem(0x20000164, 0x0400 Bytes, ...) - Data: 00 10 02 40 04 73 00 08 0E 4A 51 68 0E 48 01 F0 ... -- CPU_WriteMem(1024 bytes @ 0x20000164)  returns 0x400 (0013ms, 0387ms total)
T41C4 000:837 JLINK_WriteReg(R0, 0x08001800)  returns 0x00 (0000ms, 0387ms total)
T41C4 000:837 JLINK_WriteReg(R1, 0x00000400)  returns 0x00 (0000ms, 0387ms total)
T41C4 000:837 JLINK_WriteReg(R2, 0x20000164)  returns 0x00 (0000ms, 0387ms total)
T41C4 000:837 JLINK_WriteReg(R3, 0x00000000)  returns 0x00 (0000ms, 0387ms total)
T41C4 000:837 JLINK_WriteReg(R4, 0x00000000)  returns 0x00 (0000ms, 0387ms total)
T41C4 000:837 JLINK_WriteReg(R5, 0x00000000)  returns 0x00 (0000ms, 0387ms total)
T41C4 000:837 JLINK_WriteReg(R6, 0x00000000)  returns 0x00 (0000ms, 0387ms total)
T41C4 000:837 JLINK_WriteReg(R7, 0x00000000)  returns 0x00 (0000ms, 0387ms total)
T41C4 000:837 JLINK_WriteReg(R8, 0x00000000)  returns 0x00 (0000ms, 0387ms total)
T41C4 000:837 JLINK_WriteReg(R9, 0x20000160)  returns 0x00 (0000ms, 0387ms total)
T41C4 000:837 JLINK_WriteReg(R10, 0x00000000)  returns 0x00 (0000ms, 0387ms total)
T41C4 000:837 JLINK_WriteReg(R11, 0x00000000)  returns 0x00 (0000ms, 0387ms total)
T41C4 000:837 JLINK_WriteReg(R12, 0x00000000)  returns 0x00 (0000ms, 0387ms total)
T41C4 000:837 JLINK_WriteReg(R13 (SP), 0x20001000)  returns 0x00 (0000ms, 0387ms total)
T41C4 000:837 JLINK_WriteReg(R14, 0x20000001)  returns 0x00 (0000ms, 0387ms total)
T41C4 000:837 JLINK_WriteReg(R15 (PC), 0x200000F4)  returns 0x00 (0000ms, 0387ms total)
T41C4 000:837 JLINK_WriteReg(XPSR, 0x01000000)  returns 0x00 (0000ms, 0387ms total)
T41C4 000:837 JLINK_WriteReg(MSP, 0x20001000)  returns 0x00 (0000ms, 0387ms total)
T41C4 000:837 JLINK_WriteReg(PSP, 0x20001000)  returns 0x00 (0000ms, 0387ms total)
T41C4 000:837 JLINK_WriteReg(CFBP, 0x00000000)  returns 0x00 (0000ms, 0387ms total)
T41C4 000:837 JLINK_SetBPEx(Addr = 0x20000000, Type = 0xFFFFFFF2)  returns 0x0000000B (0000ms, 0387ms total)
T41C4 000:837 JLINK_Go() -- CPU_ReadMem(4 bytes @ 0xE0001000) (0004ms, 0391ms total)
T41C4 000:841 JLINK_IsHalted()  returns FALSE (0001ms, 0392ms total)
T41C4 000:844 JLINK_IsHalted()  returns FALSE (0001ms, 0392ms total)
T41C4 000:847 JLINK_IsHalted()  returns FALSE (0000ms, 0391ms total)
T41C4 000:849 JLINK_IsHalted()  returns FALSE (0000ms, 0391ms total)
T41C4 000:853 JLINK_IsHalted()  returns FALSE (0000ms, 0391ms total)
T41C4 000:855 JLINK_IsHalted()  returns FALSE (0001ms, 0392ms total)
T41C4 000:857 JLINK_IsHalted()  returns FALSE (0000ms, 0391ms total)
T41C4 000:859 JLINK_IsHalted()  returns FALSE (0000ms, 0391ms total)
T41C4 000:861 JLINK_IsHalted()  returns FALSE (0000ms, 0391ms total)
T41C4 000:863 JLINK_IsHalted()  returns FALSE (0001ms, 0392ms total)
T41C4 000:866 JLINK_IsHalted()  returns FALSE (0001ms, 0392ms total)
T41C4 000:869 JLINK_IsHalted()  returns FALSE (0000ms, 0391ms total)
T41C4 000:871 JLINK_IsHalted() -- CPU_ReadMem(2 bytes @ 0x20000000)  returns TRUE (0005ms, 0396ms total)
T41C4 000:876 JLINK_ReadReg(R15 (PC))  returns 0x20000000 (0000ms, 0391ms total)
T41C4 000:876 JLINK_ClrBPEx(BPHandle = 0x0000000B)  returns 0x00 (0000ms, 0391ms total)
T41C4 000:876 JLINK_ReadReg(R0)  returns 0x00000000 (0000ms, 0391ms total)
T41C4 000:876 JLINK_WriteMem(0x20000164, 0x0400 Bytes, ...) - Data: 21 68 08 60 A0 69 04 21 01 EA 10 40 21 68 48 60 ... -- CPU_WriteMem(1024 bytes @ 0x20000164)  returns 0x400 (0013ms, 0404ms total)
T41C4 000:889 JLINK_WriteReg(R0, 0x08001C00)  returns 0x00 (0000ms, 0404ms total)
T41C4 000:889 JLINK_WriteReg(R1, 0x00000400)  returns 0x00 (0000ms, 0404ms total)
T41C4 000:889 JLINK_WriteReg(R2, 0x20000164)  returns 0x00 (0000ms, 0404ms total)
T41C4 000:889 JLINK_WriteReg(R3, 0x00000000)  returns 0x00 (0000ms, 0404ms total)
T41C4 000:889 JLINK_WriteReg(R4, 0x00000000)  returns 0x00 (0000ms, 0404ms total)
T41C4 000:889 JLINK_WriteReg(R5, 0x00000000)  returns 0x00 (0000ms, 0404ms total)
T41C4 000:889 JLINK_WriteReg(R6, 0x00000000)  returns 0x00 (0000ms, 0404ms total)
T41C4 000:889 JLINK_WriteReg(R7, 0x00000000)  returns 0x00 (0000ms, 0404ms total)
T41C4 000:889 JLINK_WriteReg(R8, 0x00000000)  returns 0x00 (0000ms, 0404ms total)
T41C4 000:889 JLINK_WriteReg(R9, 0x20000160)  returns 0x00 (0000ms, 0404ms total)
T41C4 000:889 JLINK_WriteReg(R10, 0x00000000)  returns 0x00 (0000ms, 0404ms total)
T41C4 000:889 JLINK_WriteReg(R11, 0x00000000)  returns 0x00 (0000ms, 0404ms total)
T41C4 000:889 JLINK_WriteReg(R12, 0x00000000)  returns 0x00 (0000ms, 0404ms total)
T41C4 000:889 JLINK_WriteReg(R13 (SP), 0x20001000)  returns 0x00 (0000ms, 0404ms total)
T41C4 000:889 JLINK_WriteReg(R14, 0x20000001)  returns 0x00 (0000ms, 0404ms total)
T41C4 000:889 JLINK_WriteReg(R15 (PC), 0x200000F4)  returns 0x00 (0000ms, 0404ms total)
T41C4 000:889 JLINK_WriteReg(XPSR, 0x01000000)  returns 0x00 (0000ms, 0404ms total)
T41C4 000:889 JLINK_WriteReg(MSP, 0x20001000)  returns 0x00 (0000ms, 0404ms total)
T41C4 000:889 JLINK_WriteReg(PSP, 0x20001000)  returns 0x00 (0000ms, 0404ms total)
T41C4 000:889 JLINK_WriteReg(CFBP, 0x00000000)  returns 0x00 (0000ms, 0404ms total)
T41C4 000:889 JLINK_SetBPEx(Addr = 0x20000000, Type = 0xFFFFFFF2)  returns 0x0000000C (0000ms, 0404ms total)
T41C4 000:889 JLINK_Go() -- CPU_ReadMem(4 bytes @ 0xE0001000) (0003ms, 0407ms total)
T41C4 000:892 JLINK_IsHalted()  returns FALSE (0001ms, 0408ms total)
T41C4 000:896 JLINK_IsHalted()  returns FALSE (0001ms, 0408ms total)
T41C4 000:899 JLINK_IsHalted()  returns FALSE (0000ms, 0407ms total)
T41C4 000:901 JLINK_IsHalted()  returns FALSE (0000ms, 0407ms total)
T41C4 000:903 JLINK_IsHalted()  returns FALSE (0001ms, 0408ms total)
T41C4 000:906 JLINK_IsHalted()  returns FALSE (0001ms, 0408ms total)
T41C4 000:909 JLINK_IsHalted()  returns FALSE (0000ms, 0407ms total)
T41C4 000:911 JLINK_IsHalted()  returns FALSE (0000ms, 0407ms total)
T41C4 000:913 JLINK_IsHalted()  returns FALSE (0000ms, 0407ms total)
T41C4 000:915 JLINK_IsHalted()  returns FALSE (0001ms, 0408ms total)
T41C4 000:918 JLINK_IsHalted()  returns FALSE (0000ms, 0407ms total)
T41C4 000:921 JLINK_IsHalted()  returns FALSE (0000ms, 0407ms total)
T41C4 000:923 JLINK_IsHalted() -- CPU_ReadMem(2 bytes @ 0x20000000)  returns TRUE (0004ms, 0411ms total)
T41C4 000:927 JLINK_ReadReg(R15 (PC))  returns 0x20000000 (0000ms, 0407ms total)
T41C4 000:927 JLINK_ClrBPEx(BPHandle = 0x0000000C)  returns 0x00 (0000ms, 0407ms total)
T41C4 000:927 JLINK_ReadReg(R0)  returns 0x00000000 (0000ms, 0407ms total)
T41C4 000:927 JLINK_WriteMem(0x20000164, 0x0400 Bytes, ...) - Data: CA 68 49 68 20 68 00 F0 75 FD 40 21 20 68 F4 E7 ... -- CPU_WriteMem(1024 bytes @ 0x20000164)  returns 0x400 (0013ms, 0420ms total)
T41C4 000:940 JLINK_WriteReg(R0, 0x08002000)  returns 0x00 (0000ms, 0420ms total)
T41C4 000:940 JLINK_WriteReg(R1, 0x00000400)  returns 0x00 (0000ms, 0420ms total)
T41C4 000:940 JLINK_WriteReg(R2, 0x20000164)  returns 0x00 (0000ms, 0420ms total)
T41C4 000:940 JLINK_WriteReg(R3, 0x00000000)  returns 0x00 (0000ms, 0420ms total)
T41C4 000:940 JLINK_WriteReg(R4, 0x00000000)  returns 0x00 (0000ms, 0420ms total)
T41C4 000:940 JLINK_WriteReg(R5, 0x00000000)  returns 0x00 (0000ms, 0420ms total)
T41C4 000:940 JLINK_WriteReg(R6, 0x00000000)  returns 0x00 (0000ms, 0420ms total)
T41C4 000:940 JLINK_WriteReg(R7, 0x00000000)  returns 0x00 (0000ms, 0420ms total)
T41C4 000:940 JLINK_WriteReg(R8, 0x00000000)  returns 0x00 (0000ms, 0420ms total)
T41C4 000:940 JLINK_WriteReg(R9, 0x20000160)  returns 0x00 (0000ms, 0420ms total)
T41C4 000:940 JLINK_WriteReg(R10, 0x00000000)  returns 0x00 (0000ms, 0420ms total)
T41C4 000:940 JLINK_WriteReg(R11, 0x00000000)  returns 0x00 (0000ms, 0420ms total)
T41C4 000:940 JLINK_WriteReg(R12, 0x00000000)  returns 0x00 (0000ms, 0420ms total)
T41C4 000:940 JLINK_WriteReg(R13 (SP), 0x20001000)  returns 0x00 (0000ms, 0420ms total)
T41C4 000:940 JLINK_WriteReg(R14, 0x20000001)  returns 0x00 (0000ms, 0420ms total)
T41C4 000:940 JLINK_WriteReg(R15 (PC), 0x200000F4)  returns 0x00 (0000ms, 0420ms total)
T41C4 000:940 JLINK_WriteReg(XPSR, 0x01000000)  returns 0x00 (0000ms, 0420ms total)
T41C4 000:940 JLINK_WriteReg(MSP, 0x20001000)  returns 0x00 (0000ms, 0420ms total)
T41C4 000:940 JLINK_WriteReg(PSP, 0x20001000)  returns 0x00 (0000ms, 0420ms total)
T41C4 000:940 JLINK_WriteReg(CFBP, 0x00000000)  returns 0x00 (0000ms, 0420ms total)
T41C4 000:940 JLINK_SetBPEx(Addr = 0x20000000, Type = 0xFFFFFFF2)  returns 0x0000000D (0000ms, 0420ms total)
T41C4 000:940 JLINK_Go() -- CPU_ReadMem(4 bytes @ 0xE0001000) (0003ms, 0423ms total)
T41C4 000:943 JLINK_IsHalted()  returns FALSE (0001ms, 0424ms total)
T41C4 000:947 JLINK_IsHalted()  returns FALSE (0001ms, 0424ms total)
T41C4 000:950 JLINK_IsHalted()  returns FALSE (0000ms, 0423ms total)
T41C4 000:953 JLINK_IsHalted()  returns FALSE (0001ms, 0424ms total)
T41C4 000:956 JLINK_IsHalted()  returns FALSE (0001ms, 0424ms total)
T41C4 000:959 JLINK_IsHalted()  returns FALSE (0001ms, 0424ms total)
T41C4 000:967 JLINK_IsHalted()  returns FALSE (0001ms, 0424ms total)
T41C4 000:969 JLINK_IsHalted()  returns FALSE (0001ms, 0424ms total)
T41C4 000:971 JLINK_IsHalted()  returns FALSE (0001ms, 0424ms total)
T41C4 000:974 JLINK_IsHalted() -- CPU_ReadMem(2 bytes @ 0x20000000)  returns TRUE (0004ms, 0427ms total)
T41C4 000:978 JLINK_ReadReg(R15 (PC))  returns 0x20000000 (0000ms, 0423ms total)
T41C4 000:978 JLINK_ClrBPEx(BPHandle = 0x0000000D)  returns 0x00 (0000ms, 0423ms total)
T41C4 000:978 JLINK_ReadReg(R0)  returns 0x00000000 (0000ms, 0423ms total)
T41C4 000:978 JLINK_WriteMem(0x20000164, 0x0400 Bytes, ...) - Data: 41 30 00 F0 0E F9 C1 E7 3B 2B 00 08 70 B5 04 00 ... -- CPU_WriteMem(1024 bytes @ 0x20000164)  returns 0x400 (0013ms, 0436ms total)
T41C4 000:991 JLINK_WriteReg(R0, 0x08002400)  returns 0x00 (0000ms, 0436ms total)
T41C4 000:991 JLINK_WriteReg(R1, 0x00000400)  returns 0x00 (0000ms, 0436ms total)
T41C4 000:991 JLINK_WriteReg(R2, 0x20000164)  returns 0x00 (0000ms, 0436ms total)
T41C4 000:991 JLINK_WriteReg(R3, 0x00000000)  returns 0x00 (0000ms, 0436ms total)
T41C4 000:991 JLINK_WriteReg(R4, 0x00000000)  returns 0x00 (0000ms, 0436ms total)
T41C4 000:991 JLINK_WriteReg(R5, 0x00000000)  returns 0x00 (0000ms, 0436ms total)
T41C4 000:991 JLINK_WriteReg(R6, 0x00000000)  returns 0x00 (0000ms, 0436ms total)
T41C4 000:991 JLINK_WriteReg(R7, 0x00000000)  returns 0x00 (0000ms, 0436ms total)
T41C4 000:991 JLINK_WriteReg(R8, 0x00000000)  returns 0x00 (0000ms, 0436ms total)
T41C4 000:991 JLINK_WriteReg(R9, 0x20000160)  returns 0x00 (0000ms, 0436ms total)
T41C4 000:991 JLINK_WriteReg(R10, 0x00000000)  returns 0x00 (0000ms, 0436ms total)
T41C4 000:991 JLINK_WriteReg(R11, 0x00000000)  returns 0x00 (0000ms, 0436ms total)
T41C4 000:991 JLINK_WriteReg(R12, 0x00000000)  returns 0x00 (0000ms, 0436ms total)
T41C4 000:991 JLINK_WriteReg(R13 (SP), 0x20001000)  returns 0x00 (0000ms, 0436ms total)
T41C4 000:991 JLINK_WriteReg(R14, 0x20000001)  returns 0x00 (0000ms, 0436ms total)
T41C4 000:991 JLINK_WriteReg(R15 (PC), 0x200000F4)  returns 0x00 (0000ms, 0436ms total)
T41C4 000:991 JLINK_WriteReg(XPSR, 0x01000000)  returns 0x00 (0000ms, 0436ms total)
T41C4 000:991 JLINK_WriteReg(MSP, 0x20001000)  returns 0x00 (0000ms, 0436ms total)
T41C4 000:991 JLINK_WriteReg(PSP, 0x20001000)  returns 0x00 (0000ms, 0436ms total)
T41C4 000:991 JLINK_WriteReg(CFBP, 0x00000000)  returns 0x00 (0000ms, 0436ms total)
T41C4 000:991 JLINK_SetBPEx(Addr = 0x20000000, Type = 0xFFFFFFF2)  returns 0x0000000E (0000ms, 0436ms total)
T41C4 000:991 JLINK_Go() -- CPU_ReadMem(4 bytes @ 0xE0001000) (0004ms, 0440ms total)
T41C4 000:995 JLINK_IsHalted()  returns FALSE (0001ms, 0441ms total)
T41C4 000:998 JLINK_IsHalted()  returns FALSE (0001ms, 0441ms total)
T41C4 001:001 JLINK_IsHalted()  returns FALSE (0001ms, 0441ms total)
T41C4 001:004 JLINK_IsHalted()  returns FALSE (0000ms, 0440ms total)
T41C4 001:006 JLINK_IsHalted()  returns FALSE (0000ms, 0440ms total)
T41C4 001:010 JLINK_IsHalted()  returns FALSE (0000ms, 0440ms total)
T41C4 001:012 JLINK_IsHalted()  returns FALSE (0000ms, 0440ms total)
T41C4 001:013 JLINK_IsHalted()  returns FALSE (0001ms, 0441ms total)
T41C4 001:015 JLINK_IsHalted()  returns FALSE (0000ms, 0440ms total)
T41C4 001:017 JLINK_IsHalted()  returns FALSE (0001ms, 0441ms total)
T41C4 001:020 JLINK_IsHalted()  returns FALSE (0001ms, 0441ms total)
T41C4 001:024 JLINK_IsHalted()  returns FALSE (0001ms, 0441ms total)
